# HZ S RI R 50
50000 0.999779343 -0.005673541
9049500 0.970870435 -0.242642611
18049000 0.883322417 -0.468053668
27048500 0.745158731 -0.665425837
36048000 0.563414394 -0.823622882
45047500 0.347560971 -0.934065043
54047000 0.11535336 -0.987289965
63046500 -0.123482517 -0.982800781
72046000 -0.354409486 -0.919859826
81045500 -0.567300915 -0.801840186
90045000 -0.748925089 -0.63774079
99044500 -0.873907208 -0.442136913
108044000 -0.950190246 -0.220126599
117043500 -0.972268044 0.014974299
126043000 -0.937502861 0.246606796
135042500 -0.847996771 0.463170289
144042000 -0.709899663 0.651647865
153041500 -0.530699431 0.80281496
162041000 -0.32070434 0.906439781
171040500 -0.091776862 0.956015229
180040000 0.141571283 0.948607265
189039500 0.365803569 0.885481417
198039000 0.568083405 0.769911468
207038500 0.7367329 0.609140694
216038000 0.861142575 0.412852793
225037500 0.933841466 0.193008512
234037000 0.951519906 -0.037609979
243036500 0.914627254 -0.26505649
252036000 0.824108541 -0.475961804
261035500 0.68430531 -0.65844053
270035000 0.506311655 -0.800969839
279034500 0.299572616 -0.89646089
288034000 0.078663915 -0.940961837
297033500 -0.147270441 -0.931806862
306033000 -0.362871646 -0.865520834
315032500 -0.557793676 -0.757629752
324032000 -0.723977208 -0.608014822
333031500 -0.848301231 -0.423780918
342031000 -0.927120447 -0.2181838
351030500 -0.958830654 -0.001839048
360030000 -0.942156493 0.215649411
369029500 -0.874279558 0.418948322
378029000 -0.76269263 0.610350847
387028500 -0.608793675 0.769614458
396028000 -0.422104567 0.890971362
405027500 -0.210733398 0.959136545
414027000 0.015153524 0.97878611
423026500 0.240214392 0.944453477
432026000 0.452336609 0.853082537
441025500 0.63586837 0.71660757
450025000 0.782213687 0.538232207
459024500 0.88689655 0.331591755
468024000 0.936981618 0.108518406
477023500 0.935771584 -0.11953479
486023000 0.87398535 -0.34574458
495022500 0.764405608 -0.543378949
504022000 0.609143018 -0.713800132
513021500 0.414341956 -0.838690042
522021000 0.197822302 -0.912546753
531020500 -0.033842641 -0.930205225
540020000 -0.262221604 -0.888527452
549019500 -0.474947661 -0.793492019
558019000 -0.654411494 -0.648083567
567018500 -0.802529335 -0.460566669
576018000 -0.886625349 -0.246858283
585017500 -0.921265542 -0.018072541
594017000 -0.895200669 0.213766783
603016500 -0.808224618 0.430723756
612016000 -0.678961873 0.62086457
621015500 -0.496987819 0.773220658
630015000 -0.290610879 0.870935261
639014500 -0.068437375 0.917435944
648014000 0.157484427 0.906131088
657013500 0.373726487 0.841181814
666013000 0.564200878 0.728559076
675012500 0.719436943 0.575444579
684012000 0.830906093 0.387242913
693011500 0.898832857 0.178747907
702011000 0.911371529 -0.035565495
711010500 0.872178912 -0.249109551
720010000 0.790124237 -0.443706482
729009500 0.662166774 -0.618511617
738009000 0.491934388 -0.752651095
747008500 0.303121536 -0.84602642
756008000 0.095034077 -0.893037438
765007500 -0.120596334 -0.894681096
774007000 -0.330421924 -0.84224683
783006500 -0.528305113 -0.747864067
792006000 -0.685762941 -0.603873252
801005500 -0.813598871 -0.436732739
810005000 -0.903845191 -0.239468604
819004500 -0.940963804 -0.028222657
828004000 -0.926726162 0.181687608
837003500 -0.871912777 0.39068982
846003000 -0.766781032 0.571791231
855002500 -0.628300786 0.726294875
864002000 -0.455213904 0.846664845
873001500 -0.263052314 0.925608694
882001000 -0.058913163 0.958316147
891000500 0.152776852 0.954614758
900000000 0.352535754 0.892120838
