# HZ S RI R 50
50000 1.000173211 -0.005075805
9049500 1.000705361 -0.002291472
18049000 0.999963819 -0.003054912
27048500 1.000065684 -0.003366097
36048000 1.000101685 -0.003836594
45047500 0.999892294 -0.003965847
54047000 0.99999541 -0.004198303
63046500 1.000129818 -0.004349381
72046000 1.000088453 -0.004537293
81045500 0.999873697 -0.004662577
90045000 0.999896824 -0.005402058
99044500 0.999697446 -0.005872035
108044000 1.000009894 -0.005621456
117043500 1.000023722 -0.00614506
126043000 0.999850749 -0.006309211
135042500 1.000100612 -0.00649403
144042000 1.00003302 -0.0066295
153041500 0.999947667 -0.007192058
162041000 0.999943733 -0.00727375
171040500 0.999743342 -0.007992835
180040000 0.999946892 -0.00842063
189039500 0.999594867 -0.008283152
198039000 0.999783515 -0.008470012
207038500 0.999914228 -0.008993885
216038000 0.999626457 -0.009025647
225037500 0.999066054 -0.009180806
234037000 0.999436318 -0.009393199
243036500 0.999321937 -0.009384079
252036000 0.999901473 -0.009961929
261035500 0.999577343 -0.010256919
270035000 0.9987244 -0.009581551
279034500 0.998894274 -0.009725861
288034000 0.998606801 -0.0100843
297033500 0.99941498 -0.009796003
306033000 1.00084114 -0.01128131
315032500 1.000609636 -0.01373048
324032000 0.998418033 -0.013967749
333031500 0.998931765 -0.012070859
342031000 0.996872365 -0.010569436
351030500 0.999897241 -0.012782317
360030000 0.998645961 -0.0134513
369029500 1.004387021 -0.013100652
378029000 0.999571919 -0.012838971
387028500 0.999447107 -0.014219894
396028000 0.994955182 -0.017872512
405027500 1.003632664 -0.015919256
414027000 0.997788846 -0.015329234
423026500 0.998972773 -0.016091253
432026000 0.999979496 -0.016039391
441025500 0.999334871 -0.01727676
450025000 0.996776938 -0.017227798
459024500 0.995809853 -0.016571493
468024000 0.997819781 -0.017499158
477023500 0.998524725 -0.016711052
486023000 0.999286353 -0.015395036
495022500 0.996806919 -0.016987431
504022000 0.997098147 -0.017073653
513021500 0.990397751 -0.017877968
522021000 0.995530366 -0.016702057
531020500 0.995071411 -0.018329815
540020000 0.997368872 -0.019584568
549019500 0.998889207 -0.018149545
558019000 0.993836641 -0.015602715
567018500 0.995755136 -0.022129938
576018000 0.996415734 -0.018043801
585017500 0.999824881 -0.016428947
594017000 1.001780986 -0.017365304
603016500 0.998093128 -0.017241815
612016000 1.005063891 -0.023505222
621015500 0.993080675 -0.019100414
630015000 0.999497592 -0.021781716
639014500 1.001753926 -0.021289762
648014000 1.002458691 -0.019509879
657013500 1.00112009 -0.020603375
666013000 1.001957058 -0.023101307
675012500 0.999226093 -0.02269362
684012000 1.003452658 -0.021516218
693011500 1.003908514 -0.026058588
702011000 1.002045035 -0.022468604
711010500 1.00460422 -0.029523652
720010000 1.001800417 -0.025460712
729009500 1.010359048 -0.028258644
738009000 1.004715323 -0.029982075
747008500 1.005238175 -0.026657039
756008000 0.999843358 -0.026650795
765007500 1.004953265 -0.025885017
774007000 1.003368139 -0.032759457
783006500 1.001694321 -0.031894557
792006000 1.004709243 -0.029813623
801005500 1.003868699 -0.031358961
810005000 1.005571007 -0.028577178
819004500 1.005380034 -0.032712593
828004000 1.003224253 -0.034128915
837003500 1.006252527 -0.030585566
846003000 1.002306699 -0.032473813
855002500 1.000524282 -0.032373752
864002000 0.997460663 -0.032384205
873001500 0.998909175 -0.033157445
882001000 1.002724885 -0.034165248
891000500 1.000423908 -0.039129629
900000000 1.004215359 -0.035218276
