# HZ S RI R 50
50000 1.000197172 -0.005834186
9049500 0.992857635 -0.126127064
18049000 0.96914643 -0.24650292
27048500 0.931975305 -0.362830251
36048000 0.88027817 -0.474609255
45047500 0.81411314 -0.579650878
54047000 0.737719237 -0.674574196
63046500 0.651101708 -0.758465945
72046000 0.554967582 -0.830831408
81045500 0.449450194 -0.889112353
90045000 0.323066383 -0.938758909
99044500 0.202231109 -0.971974134
108044000 0.083442211 -0.989190876
117043500 -0.037859436 -0.991083502
126043000 -0.158234715 -0.977790176
135042500 -0.277714163 -0.949522018
144042000 -0.392128527 -0.906926751
153041500 -0.499634325 -0.85051918
162041000 -0.599380791 -0.782085776
171040500 -0.689677357 -0.702093064
180040000 -0.769940197 -0.611217021
189039500 -0.838659882 -0.511201202
198039000 -0.895455837 -0.402363091
207038500 -0.938215792 -0.288111656
216038000 -0.966694056 -0.170264706
225037500 -0.980351328 -0.049700271
234037000 -0.979289114 0.071155577
243036500 -0.963382065 0.190606847
252036000 -0.933212399 0.307600766
261035500 -0.887844383 0.419758498
270035000 -0.829785525 0.525048792
279034500 -0.759388864 0.621995031
288034000 -0.676847994 0.710332751
297033500 -0.585278034 0.785521686
306033000 -0.516356348 0.829073965
315032500 -0.411043316 0.889696538
324032000 -0.300335764 0.932658016
333031500 -0.185419395 0.964422345
342031000 -0.066810339 0.977624773
351030500 0.050993219 0.98343271
360030000 0.169732272 0.970007181
369029500 0.286061108 0.946241855
378029000 0.398428559 0.902477502
387028500 0.503872752 0.851112306
396028000 0.603323757 0.785874783
405027500 0.693325161 0.713903665
414027000 0.769985437 0.627969682
423026500 0.838961422 0.53452146
432026000 0.8997792 0.426446229
441025500 0.940146148 0.320508211
450025000 0.966453611 0.20042181
459024500 0.981172859 0.080585941
468024000 0.981497824 -0.039815273
477023500 0.965312898 -0.157462745
486023000 0.935656964 -0.274705111
495022500 0.893614172 -0.389143854
504022000 0.835951447 -0.497050255
513021500 0.756894886 -0.595098912
522021000 0.680767834 -0.682731151
531020500 0.58669579 -0.76120305
540020000 0.482353776 -0.825410068
549019500 0.375606298 -0.880260348
558019000 0.262327641 -0.91181308
567018500 0.135496273 -0.943746209
576018000 0.022079631 -0.951366484
585017500 -0.098468177 -0.949497818
594017000 -0.219903737 -0.928645074
603016500 -0.335366189 -0.892540752
612016000 -0.445167213 -0.844136953
621015500 -0.547652184 -0.779677391
630015000 -0.642936646 -0.704621851
639014500 -0.728595316 -0.619730293
648014000 -0.798785626 -0.529321908
657013500 -0.859579563 -0.421939283
666013000 -0.903480112 -0.311883926
675012500 -0.932426869 -0.197147265
684012000 -0.950926244 -0.080250211
693011500 -0.953460037 0.037641383
702011000 -0.94259274 0.15568009
711010500 -0.9140473 0.270878612
720010000 -0.873442649 0.384461462
729009500 -0.819337189 0.491345882
738009000 -0.753133296 0.58564049
747008500 -0.675475299 0.674464523
756008000 -0.58509469 0.752305269
765007500 -0.491718918 0.818099737
774007000 -0.386097848 0.876524865
783006500 -0.274227946 0.919592142
792006000 -0.164821848 0.941923975
801005500 -0.048417095 0.95781207
810005000 0.066699482 0.955878317
819004500 0.182618781 0.940937817
828004000 0.297066926 0.914063274
837003500 0.403309494 0.870455324
846003000 0.505246579 0.818860113
855002500 0.599643886 0.751930117
864002000 0.688628494 0.673513531
873001500 0.767599821 0.583328783
882001000 0.831548213 0.492315262
891000500 0.890788793 0.380398303
900000000 0.930304527 0.273612439
